!Keysight Technologies,N5242B,US58420760,A.14.80.03
!Date: Tuesday, March 01, 2022 13:26:08
!Correction: S11(C  2-Port  ) 
!S21(C  2-Port  ) 
!S12(C  2-Port  ) 
!S22(C  2-Port  ) 
!S2P File: Measurements: S11, S21, S12, S22:
# Hz S  dB   R 50
10000000 -48.853363 14.072773 -0.038858611 -5.3237019 -0.037122071 -4.9174938 -46.307289 -16.796471
11868750 -46.268414 -9.135252 -0.042361226 -6.2571054 -0.038375705 -5.870894 -46.795898 -30.082808
13737500 -47.798054 -9.1428576 -0.04958152 -7.0862398 -0.0436318 -6.8547549 -47.220066 -38.45866
15606250 -45.010033 -7.6857252 -0.046002183 -7.9676003 -0.038445175 -7.8083696 -47.335911 -32.830631
17475000 -45.04818 -16.689219 -0.050878827 -8.9068823 -0.043749727 -8.7330017 -46.983269 -21.595428
19343750 -44.394238 -20.222263 -0.050579473 -9.8343687 -0.048020758 -9.6484957 -45.49226 -28.790474
21212500 -44.438686 -25.356018 -0.051909044 -10.743924 -0.047933862 -10.630679 -45.091156 -29.506678
23081250 -43.684834 -24.811255 -0.05515714 -11.708877 -0.056436975 -11.560649 -44.695816 -32.129581
24950000 -42.947189 -32.982891 -0.051161177 -12.62456 -0.048147701 -12.49852 -44.846645 -36.877071
26818750 -42.747993 -33.314129 -0.058176272 -13.570255 -0.057159781 -13.441005 -43.396217 -38.747505
28687500 -42.164116 -39.286152 -0.056331027 -14.497168 -0.058158431 -14.3582 -42.954453 -39.147324
30556250 -41.532566 -40.783329 -0.059692398 -15.427518 -0.061018195 -15.298038 -42.635296 -42.360195
32425000 -41.377777 -43.333683 -0.058060054 -16.363001 -0.061879616 -16.225189 -42.191715 -44.800961
34293750 -41.610714 -45.871441 -0.061787717 -17.270668 -0.062360682 -17.187145 -42.143505 -45.796268
36162500 -41.005905 -51.274254 -0.062559739 -18.204 -0.062708117 -18.1134 -41.749287 -47.682556
38031250 -40.529434 -52.656067 -0.066281281 -19.133877 -0.069641948 -19.015121 -40.926418 -49.892536
39900000 -40.446865 -54.678955 -0.064913414 -20.056707 -0.063999638 -19.96874 -40.834393 -52.537315
41768750 -40.14798 -58.599144 -0.066849314 -20.984205 -0.066150911 -20.88258 -40.58197 -54.869064
43637500 -40.15176 -56.247082 -0.070132814 -21.905548 -0.068689041 -21.854116 -40.288681 -55.248447
45506250 -39.821846 -61.347496 -0.072033674 -22.832914 -0.069918156 -22.77593 -40.033932 -56.940769
47375000 -39.706226 -62.398827 -0.073351398 -23.746386 -0.071209185 -23.699703 -39.67791 -58.881393
49243750 -39.270428 -63.022949 -0.074781448 -24.663429 -0.074334562 -24.627644 -39.228405 -60.855019
51112500 -39.352982 -65.33741 -0.075815767 -25.587242 -0.075311616 -25.571043 -38.936352 -64.437752
52981250 -39.078758 -66.360672 -0.078646593 -26.519547 -0.075352706 -26.487053 -38.959385 -64.77076
54850000 -38.783714 -67.786804 -0.075148843 -27.500429 -0.075361133 -27.488548 -38.54118 -66.497528
56718750 -38.525215 -69.634499 -0.080656141 -28.412724 -0.077464819 -28.420568 -38.457657 -65.369736
58587500 -38.163307 -68.613274 -0.079017743 -29.348122 -0.079082072 -29.347322 -38.043346 -67.632133
60456250 -37.973461 -72.196678 -0.079040416 -30.28911 -0.079701878 -30.27273 -37.743805 -70.411446
62325000 -37.938477 -74.486366 -0.080707304 -31.203154 -0.082475081 -31.202904 -37.302906 -71.401596
64193750 -37.61771 -73.412621 -0.084311411 -32.141117 -0.084340446 -32.126774 -37.310234 -73.882965
66062500 -37.41066 -76.190193 -0.084267333 -33.063244 -0.087123483 -33.058613 -37.084568 -75.669106
67931250 -36.93816 -78.756187 -0.087313645 -33.991726 -0.083119124 -33.986176 -36.75864 -77.71389
69800000 -36.830059 -79.955551 -0.084422797 -34.909725 -0.087099716 -34.911198 -36.699501 -78.702812
71668750 -36.839634 -82.357285 -0.088539056 -35.840397 -0.090138763 -35.843082 -36.620548 -81.646645
73537500 -36.576385 -83.860931 -0.091934182 -36.782047 -0.08887618 -36.770451 -36.343327 -83.319237
75406250 -36.381378 -83.771523 -0.091598675 -37.70998 -0.090360247 -37.680717 -36.053989 -84.935524
77275000 -36.206062 -87.023018 -0.093006715 -38.648296 -0.091784008 -38.620129 -36.015324 -85.922325
79143750 -36.069798 -89.05648 -0.095451303 -39.562405 -0.095056787 -39.560486 -35.736168 -88.098747
81012500 -35.893814 -90.370529 -0.096978121 -40.473053 -0.09567491 -40.484119 -35.791389 -89.33918
82881250 -35.598782 -91.937103 -0.096652806 -41.420738 -0.096180104 -41.409 -35.493469 -90.948563
84750000 -35.697079 -92.966606 -0.098471843 -42.342545 -0.097410932 -42.329559 -35.341431 -93.555077
86618750 -35.568268 -95.039047 -0.099979855 -43.268925 -0.10090627 -43.265278 -35.249817 -94.735161
88487500 -35.41124 -96.534431 -0.10184056 -44.182831 -0.10281561 -44.197704 -35.260101 -96.152664
90356250 -35.214779 -97.765022 -0.10389746 -45.125645 -0.10196485 -45.112411 -35.007656 -97.260918
92225000 -35.201023 -98.948837 -0.10480826 -46.044598 -0.10413263 -46.052727 -34.859066 -98.915916
94093750 -35.033424 -100.66488 -0.10559699 -46.979771 -0.10488464 -46.985413 -34.772221 -100.24511
95962500 -34.857986 -101.7854 -0.10867476 -47.91087 -0.10819039 -47.915119 -34.655323 -101.16782
97831250 -34.830311 -102.58893 -0.10945065 -48.824638 -0.10618638 -48.825268 -34.545147 -101.83465
99700000 -34.669411 -103.87771 -0.11005675 -49.760769 -0.10800781 -49.755417 -34.422791 -103.52619
101568750 -34.671474 -105.35637 -0.11234546 -50.688385 -0.11102754 -50.691021 -34.331997 -104.45098
103437500 -34.501915 -105.59714 -0.11304629 -51.60812 -0.1125981 -51.618416 -34.098843 -105.82259
105306250 -34.29287 -107.70367 -0.11493147 -52.529743 -0.11255851 -52.529743 -33.986061 -106.57729
107175000 -34.191715 -107.57571 -0.11566249 -53.448322 -0.11559284 -53.453209 -33.931137 -107.15519
109043750 -34.031094 -109.33928 -0.11603203 -54.3727 -0.11831219 -54.396629 -33.756012 -108.81864
110912500 -33.831203 -109.7427 -0.11707915 -55.300774 -0.12290113 -55.313011 -33.726028 -109.71655
112781250 -33.87109 -111.71844 -0.11815578 -56.232216 -0.12038117 -56.235756 -33.546505 -110.39198
114650000 -33.641338 -112.70199 -0.12106732 -57.15406 -0.12073035 -57.160728 -33.363403 -111.84617
116518750 -33.522373 -113.86893 -0.12203179 -58.082127 -0.12527496 -58.090542 -33.265301 -113.18133
118387500 -33.407894 -115.88299 -0.12030079 -58.991402 -0.1253778 -59.00531 -33.254501 -114.71892
120256250 -33.378181 -116.10355 -0.12045462 -59.933796 -0.12634456 -59.952164 -33.099106 -115.46987
122125000 -33.313786 -116.90329 -0.12103458 -60.861004 -0.1254929 -60.875092 -33.146183 -115.96217
123993750 -33.290096 -118.44473 -0.12174293 -61.801781 -0.12658815 -61.810734 -33.078705 -116.89418
125862500 -33.207073 -119.81509 -0.12160503 -62.729652 -0.12843497 -62.726547 -32.912895 -117.84559
127731250 -33.069244 -120.48115 -0.12388332 -63.650452 -0.12805477 -63.66489 -32.846733 -118.48021
129600000 -33.026455 -121.41142 -0.12561761 -64.588936 -0.12916292 -64.594971 -32.811272 -119.15655
131468750 -32.959824 -121.92382 -0.1252382 -65.525604 -0.12959975 -65.520233 -32.82877 -120.60175
133337500 -32.856178 -123.24945 -0.12686028 -66.461479 -0.13073738 -66.444435 -32.746887 -121.42466
135206250 -32.824368 -124.52319 -0.12987687 -67.395309 -0.13296656 -67.382187 -32.563145 -122.08116
137075000 -32.734058 -125.64877 -0.12996809 -68.304459 -0.13228093 -68.292648 -32.555107 -123.50882
138943750 -32.673008 -125.86397 -0.13189399 -69.2407 -0.13366485 -69.240364 -32.414768 -124.39923
140812500 -32.660267 -127.60352 -0.13207011 -70.174217 -0.13487217 -70.169174 -32.418201 -125.33253
142681250 -32.569565 -129.09258 -0.13444895 -71.111671 -0.13542628 -71.098793 -32.384224 -126.04324
144550000 -32.524796 -129.19926 -0.13408424 -72.041763 -0.13767122 -72.016754 -32.251144 -127.60635
146418750 -32.490345 -131.17294 -0.13622859 -72.966156 -0.1366632 -72.956474 -32.300526 -128.87811
148287500 -32.49041 -132.06601 -0.13542841 -73.929741 -0.13856615 -73.879608 -32.274002 -130.16881
150156250 -32.448704 -133.10995 -0.13829891 -74.831223 -0.13844696 -74.81955 -32.152988 -131.39969
152025000 -32.314587 -134.67836 -0.13772519 -75.753052 -0.13881417 -75.755356 -32.182686 -132.24025
153893750 -32.40583 -135.45515 -0.14283493 -76.711807 -0.14017878 -76.694069 -32.237728 -133.83772
155762500 -32.436272 -136.96129 -0.14037342 -77.61895 -0.14132267 -77.611137 -32.2071 -133.61107
157631250 -32.429989 -138.01263 -0.1429794 -78.563637 -0.14461695 -78.567451 -32.30278 -135.45982
159500000 -32.520607 -139.14359 -0.14425379 -79.502716 -0.14522101 -79.487785 -32.163475 -136.8064
161368750 -32.525539 -141.37956 -0.1481671 -80.449249 -0.14701714 -80.44294 -32.241257 -138.51225
163237500 -32.513538 -141.12364 -0.1476526 -81.389458 -0.14306928 -81.37455 -32.3451 -139.39626
165106250 -32.62822 -142.63632 -0.14677694 -82.298569 -0.148387 -82.284241 -32.28326 -140.24916
166975000 -32.660545 -143.50702 -0.14896053 -83.242378 -0.14814915 -83.250565 -32.310349 -141.43651
168843750 -32.843006 -144.8185 -0.14972971 -84.172333 -0.15294002 -84.177299 -32.518265 -142.53766
170712500 -32.910927 -145.55629 -0.15485118 -85.110451 -0.15146041 -85.108505 -32.3978 -143.63316
172581250 -33.008717 -146.30429 -0.15485011 -86.039734 -0.1544051 -86.042542 -32.506008 -144.52815
174450000 -32.925247 -146.58086 -0.15688075 -86.976936 -0.15319422 -86.963066 -32.474926 -145.88643
176318750 -32.989208 -147.36517 -0.15667786 -87.898697 -0.15396549 -87.924377 -32.56881 -146.17892
178187500 -33.108936 -149.06029 -0.1584022 -88.835358 -0.16013528 -88.847412 -32.689568 -147.45483
180056250 -33.139675 -149.18796 -0.15954633 -89.767433 -0.16214044 -89.777618 -32.748058 -147.82469
181925000 -33.129063 -149.34692 -0.16188438 -90.689285 -0.16236027 -90.707779 -32.771198 -148.84351
183793750 -33.137787 -151.41107 -0.16272171 -91.632439 -0.16001873 -91.636238 -32.831718 -149.64513
185662500 -33.172871 -151.11636 -0.1641866 -92.555229 -0.16671248 -92.579964 -32.832035 -150.92081
187531250 -33.145416 -152.52576 -0.16183601 -93.492905 -0.16600294 -93.502823 -32.867256 -151.69504
189400000 -33.277054 -153.59741 -0.16547127 -94.411774 -0.16520344 -94.450531 -32.890617 -152.03464
191268750 -33.275436 -154.08481 -0.16666138 -95.352798 -0.16762821 -95.377518 -32.78986 -152.61273
193137500 -33.138222 -154.59425 -0.16590182 -96.293686 -0.16929905 -96.315041 -33.038261 -154.239
195006250 -33.324493 -155.60054 -0.16882457 -97.207161 -0.17098722 -97.264656 -32.886368 -155.28473
196875000 -33.244877 -157.34264 -0.16559927 -98.159164 -0.17040083 -98.176331 -33.003456 -156.19142
198743750 -33.321953 -158.31706 -0.16933431 -99.094803 -0.17010818 -99.107971 -33.128445 -156.40408
200612500 -33.410416 -159.94986 -0.16684052 -100.03496 -0.17296885 -100.04911 -33.200054 -157.57895
202481250 -33.496078 -161.08269 -0.16750205 -100.96655 -0.17357095 -100.97965 -33.213783 -158.53262
204350000 -33.604492 -161.48395 -0.16856757 -101.93132 -0.17275901 -101.92776 -33.265755 -159.11987
206218750 -33.642536 -162.70647 -0.16795754 -102.8606 -0.17414699 -102.85143 -33.400787 -160.39047
208087500 -33.820042 -163.89914 -0.16691476 -103.80404 -0.17501822 -103.78012 -33.462456 -160.34708
209956250 -33.983604 -165.28278 -0.17043932 -104.74242 -0.17602816 -104.74368 -33.553768 -161.03134
211825000 -33.919998 -164.83775 -0.16929635 -105.68517 -0.17487377 -105.6991 -33.533878 -161.59268
213693750 -34.177017 -166.61639 -0.17210127 -106.63408 -0.17481151 -106.6199 -33.740681 -162.52083
215562500 -34.172394 -168.38991 -0.17140996 -107.56667 -0.17674825 -107.5546 -33.659451 -163.21782
217431250 -34.296383 -167.87343 -0.17263645 -108.51237 -0.1752694 -108.5035 -33.857307 -164.06145
219300000 -34.57085 -168.45732 -0.17106342 -109.45501 -0.17813589 -109.4417 -33.909588 -164.38846
221168750 -34.66272 -169.00865 -0.17321803 -110.38826 -0.1769793 -110.38318 -34.11562 -165.23299
223037500 -34.840714 -170.06612 -0.17438896 -111.33812 -0.17727052 -111.33079 -34.125847 -166.20702
224906250 -34.91436 -170.23375 -0.17644656 -112.29328 -0.17606644 -112.26381 -34.184307 -166.94019
226775000 -35.030827 -170.53848 -0.17493467 -113.24352 -0.1780566 -113.20226 -34.294155 -167.4301
228643750 -35.06105 -172.94743 -0.17877944 -114.17165 -0.17813642 -114.17993 -34.548672 -168.45938
230512500 -35.295559 -172.41765 -0.18027674 -115.12269 -0.18062456 -115.1095 -34.701611 -169.81198
232381250 -35.427864 -172.38214 -0.1820121 -116.05219 -0.17985743 -116.05199 -34.799599 -170.43625
234250000 -35.547386 -174.66948 -0.1810631 -117.00554 -0.18404791 -117.02065 -35.080639 -170.56412
236118750 -35.75758 -174.7225 -0.18323077 -117.96547 -0.18284899 -117.97365 -35.235966 -171.02773
237987500 -36.121666 -176.63974 -0.18553624 -118.9016 -0.18215948 -118.92261 -35.556217 -172.75221
239856250 -36.389942 -177.30446 -0.18803564 -119.85326 -0.18662564 -119.86105 -35.754284 -172.90387
241725000 -36.73917 -178.48473 -0.18590204 -120.7815 -0.1856578 -120.79774 -36.071281 -172.2995
243593750 -37.03812 -178.54204 -0.18929251 -121.71726 -0.19045292 -121.73609 -36.351231 -173.89514
245462500 -37.255138 -176.6398 -0.18760452 -122.67815 -0.18900375 -122.70351 -36.666565 -172.16826
247331250 -37.505596 -177.58569 -0.1862741 -123.64626 -0.18754992 -123.64919 -36.637886 -173.63942
249200000 -37.681805 -178.08621 -0.18960401 -124.60699 -0.1896635 -124.58949 -36.974636 -173.89143
251068750 -37.897243 -179.14801 -0.19060466 -125.51557 -0.18870148 -125.57892 -37.211609 -176.60191
252937500 -38.228668 -179.10489 -0.18961753 -126.44982 -0.19447306 -126.52173 -37.535892 -175.69662
254806250 -38.314262 -178.00078 -0.19137232 -127.41233 -0.19589888 -127.46623 -37.982056 -175.73492
256675000 -39.268517 179.11665 -0.19147702 -128.38043 -0.19599041 -128.41124 -38.568661 -173.48083
258543750 -39.470406 -178.85143 -0.19491571 -129.32541 -0.19942293 -129.33498 -38.715912 -174.2686
260412500 -39.896873 -179.90445 -0.19462791 -130.26242 -0.1963127 -130.30823 -39.211391 -175.87315
262281250 -40.23122 -175.83746 -0.19507383 -131.23912 -0.19650607 -131.25565 -39.602505 -174.88597
264150000 -40.321423 -176.79723 -0.19839641 -132.19092 -0.19947876 -132.20123 -39.982937 -173.44453
266018750 -40.855782 -174.18266 -0.19927467 -133.13234 -0.20086338 -133.15753 -39.943634 -171.80322
267887500 -40.758625 -175.09265 -0.1997796 -134.08136 -0.20397688 -134.08223 -40.707596 -174.00285
269756250 -41.643806 -174.84981 -0.1976535 -135.0244 -0.19815418 -135.06122 -41.036949 -174.09056
271625000 -41.694962 -172.66661 -0.19938417 -136.01852 -0.20383798 -136.02637 -41.653671 -172.77966
273493750 -42.399887 -172.90407 -0.19470751 -136.96692 -0.20165293 -136.95146 -42.215607 -169.31326
275362500 -42.561398 -170.31432 -0.19630916 -137.87422 -0.20504515 -137.91275 -42.634289 -172.08008
277231250 -43.05447 -172.51697 -0.20054103 -138.88345 -0.20428184 -138.85161 -42.916603 -169.93913
279100000 -42.844391 -173.99713 -0.19830266 -139.81517 -0.20573287 -139.79984 -43.162037 -172.10384
280968750 -44.126266 -171.03265 -0.20203149 -140.78772 -0.20445821 -140.77486 -44.366966 -165.81079
282837500 -44.812439 -173.53033 -0.20342128 -141.71147 -0.20832378 -141.72847 -44.692501 -165.08693
284706250 -44.328262 -165.81618 -0.20360358 -142.67429 -0.21047032 -142.67897 -44.398037 -163.2957
286575000 -45.42828 -165.94434 -0.20374572 -143.65829 -0.2077888 -143.64418 -45.565338 -157.04898
288443750 -45.720383 -163.50883 -0.20486741 -144.61143 -0.21152905 -144.60626 -45.714565 -157.90617
290312500 -46.235249 -161.53795 -0.20701659 -145.58272 -0.20679505 -145.5575 -46.313972 -151.10049
292181250 -46.915142 -154.97044 -0.20582813 -146.52515 -0.20892482 -146.52472 -46.7066 -150.34009
294050000 -47.036671 -152.76917 -0.20443107 -147.49474 -0.20822655 -147.49701 -46.459347 -147.27209
295918750 -47.927475 -144.65219 -0.20825398 -148.44452 -0.20765547 -148.42853 -46.777939 -140.2122
297787500 -48.190945 -143.64955 -0.21038963 -149.40625 -0.20794249 -149.41571 -47.395603 -139.54425
299656250 -48.08519 -133.82652 -0.20761202 -150.36795 -0.20892183 -150.37985 -46.983353 -134.83849
301525000 -48.037685 -131.64426 -0.20881943 -151.33591 -0.20990139 -151.33322 -47.030029 -129.96384
303393750 -48.263641 -122.62988 -0.20765086 -152.30405 -0.21201719 -152.31058 -46.837868 -127.76781
305262500 -47.50185 -116.57673 -0.21037659 -153.25685 -0.20939665 -153.267 -46.848305 -118.84686
307131250 -47.057362 -114.9378 -0.21248256 -154.2307 -0.20556621 -154.24974 -46.530727 -114.03262
309000000 -46.537273 -101.47987 -0.21809696 -155.19781 -0.21569662 -155.18941 -47.643219 -108.47561
310868750 -46.910442 -98.859177 -0.21833432 -156.17081 -0.21627311 -156.18156 -46.54343 -105.22464
312737500 -46.163437 -97.529106 -0.2149532 -157.17545 -0.2132764 -157.14651 -46.313881 -104.94071
314606250 -45.648396 -92.195435 -0.2182121 -158.11455 -0.21498066 -158.1188 -45.71463 -97.539917
316475000 -44.593449 -88.42849 -0.2228937 -159.08517 -0.21669622 -159.07265 -45.3335 -91.005684
318343750 -44.185524 -88.380234 -0.21661159 -160.05469 -0.21910472 -160.05586 -44.77702 -92.958351
320212500 -43.53138 -85.495781 -0.22009394 -161.01184 -0.22019987 -161.02202 -44.185909 -88.497894
322081250 -42.732025 -84.217781 -0.22425938 -161.99365 -0.2183648 -162.00342 -43.320255 -83.816322
323950000 -42.063831 -83.415306 -0.22286919 -162.93115 -0.21809804 -162.97627 -42.739567 -83.851219
325818750 -41.645069 -83.508308 -0.2235055 -163.9046 -0.22366738 -163.93637 -42.179691 -83.83696
327687500 -40.725449 -84.595299 -0.22306646 -164.88371 -0.22696829 -164.90327 -41.582626 -83.101944
329556250 -40.101025 -83.367332 -0.22577736 -165.85829 -0.22607294 -165.87903 -40.933205 -83.140762
331425000 -39.901943 -82.22036 -0.22449353 -166.82869 -0.22169137 -166.8465 -40.481907 -82.644958
333293750 -39.423199 -82.530594 -0.22625183 -167.78264 -0.22487 -167.84415 -40.013779 -81.013687
335162500 -38.78656 -84.232117 -0.22800703 -168.77634 -0.22833796 -168.79863 -39.571304 -83.113075
337031250 -38.551178 -84.445305 -0.22803895 -169.75224 -0.23008063 -169.78963 -39.174908 -82.637924
338900000 -38.358486 -84.322006 -0.23079799 -170.71266 -0.22821192 -170.75182 -38.680885 -83.503403
340768750 -38.015278 -86.624062 -0.22961229 -171.71428 -0.23036151 -171.70575 -38.284256 -82.986732
342637500 -37.713608 -86.97847 -0.22973591 -172.67061 -0.2316405 -172.70923 -38.010265 -81.945007
344506250 -37.742859 -87.379242 -0.23064648 -173.63853 -0.23097761 -173.65344 -37.782696 -82.701256
346375000 -37.361603 -87.654434 -0.2300981 -174.6107 -0.23519723 -174.67146 -37.391003 -83.510208
348243750 -37.10067 -87.296738 -0.23230022 -175.56683 -0.23347273 -175.61928 -37.164066 -83.546059
350112500 -36.819038 -87.419762 -0.23466769 -176.59111 -0.23249549 -176.61351 -36.661427 -83.479958
351981250 -36.706718 -86.735764 -0.23136283 -177.51973 -0.23296742 -177.57143 -36.50433 -82.979553
353850000 -36.359573 -88.286537 -0.23603323 -178.53769 -0.23547298 -178.55481 -36.073689 -84.829369
355718750 -36.007294 -88.150818 -0.23329654 -179.52528 -0.23772594 -179.55359 -35.830982 -84.259796
357587500 -35.957737 -88.129951 -0.23851895 179.50258 -0.23809427 179.4756 -35.703976 -86.438049
359456250 -35.709064 -89.438011 -0.23545001 178.495 -0.23645936 178.4776 -35.28019 -85.857933
361325000 -35.578865 -89.561623 -0.23510842 177.52412 -0.23905171 177.50249 -35.063545 -86.726707
363193750 -35.264549 -90.258293 -0.23549402 176.57289 -0.23790668 176.50418 -34.960598 -87.077835
365062500 -35.047134 -90.291595 -0.2410797 175.56691 -0.23710504 175.54419 -34.791203 -88.264183
366931250 -34.872856 -89.599953 -0.23832397 174.59296 -0.24202083 174.5712 -34.5639 -87.310791
368800000 -34.685219 -90.792542 -0.2395933 173.58745 -0.24277301 173.56505 -34.482838 -88.407036
370668750 -34.609524 -90.837769 -0.24319048 172.60272 -0.24329589 172.5627 -34.33802 -89.2677
372537500 -34.315166 -91.681931 -0.24432267 171.63522 -0.2451207 171.59094 -34.062572 -89.097687
374406250 -34.244171 -92.365616 -0.24248423 170.62212 -0.24053903 170.5751 -33.948978 -90.250824
376275000 -34.0089 -93.000381 -0.24127781 169.6039 -0.24264655 169.59807 -33.867695 -90.952438
378143750 -33.730095 -92.856758 -0.24584904 168.65567 -0.24322225 168.62926 -33.671398 -91.025505
380012500 -33.690769 -93.482552 -0.24717373 167.66431 -0.24604766 167.6077 -33.489933 -91.163177
